<Qucs Dataset 0.0.19>
<indep acfrequency 201>
  +1.00000000000000000000e+001
  +1.05925372517728888511e+001
  +1.12201845430196343045e+001
  +1.18850222743701845474e+001
  +1.25892541179416728170e+001
  +1.33352143216332397202e+001
  +1.41253754462275438186e+001
  +1.49623565609443343050e+001
  +1.58489319246111328710e+001
  +1.67880401812256039307e+001
  +1.77827941003892284755e+001
  +1.88364908948980023240e+001
  +1.99526231496887973549e+001
  +2.11348903983664690998e+001
  +2.23872113856833934165e+001
  +2.37137370566165515129e+001
  +2.51188643150958021977e+001
  +2.66072505979880986615e+001
  +2.81838293126445371684e+001
  +2.98538261891795961844e+001
  +3.16227766016837890106e+001
  +3.34965439157827589156e+001
  +3.54813389233575406934e+001
  +3.75837404288444147937e+001
  +3.98107170553497269339e+001
  +4.21696503428582190054e+001
  +4.46683592150963093559e+001
  +4.73151258961480465359e+001
  +5.01187233627272306080e+001
  +5.30884444230988350455e+001
  +5.62341325190349010654e+001
  +5.95662143529010421616e+001
  +6.30957344480193142999e+001
  +6.68343917568614500624e+001
  +7.07945784384137795087e+001
  +7.49894209332455972117e+001
  +7.94328234724281401213e+001
  +8.41395141645195110414e+001
  +8.91250938133745478353e+001
  +9.44060876285923455953e+001
  +9.99999999999999857891e+001
  +1.05925372517728888511e+002
  +1.12201845430196300413e+002
  +1.18850222743701849026e+002
  +1.25892541179416696195e+002
  +1.33352143216332393649e+002
  +1.41253754462275395554e+002
  +1.49623565609443318181e+002
  +1.58489319246111364237e+002
  +1.67880401812255996674e+002
  +1.77827941003892277649e+002
  +1.88364908948980030345e+002
  +1.99526231496887987760e+002
  +2.11348903983664627049e+002
  +2.23872113856833976797e+002
  +2.37137370566165486707e+002
  +2.51188643150958000660e+002
  +2.66072505979880872928e+002
  +2.81838293126445364578e+002
  +2.98538261891795855263e+002
  +3.16227766016837904317e+002
  +3.34965439157827518102e+002
  +3.54813389233575435355e+002
  +3.75837404288444020040e+002
  +3.98107170553497212495e+002
  +4.21696503428582275319e+002
  +4.46683592150963022505e+002
  +4.73151258961480493781e+002
  +5.01187233627272178182e+002
  +5.30884444230988378877e+002
  +5.62341325190349152763e+002
  +5.95662143529010450038e+002
  +6.30957344480193114578e+002
  +6.68343917568614187985e+002
  +7.07945784384137937195e+002
  +7.49894209332455716321e+002
  +7.94328234724281287527e+002
  +8.41395141645194598823e+002
  +8.91250938133745648884e+002
  +9.44060876285923200157e+002
  +9.99999999999999545253e+002
  +1.05925372517728897037e+003
  +1.12201845430196340203e+003
  +1.18850222743701806394e+003
  +1.25892541179416662089e+003
  +1.33352143216332433440e+003
  +1.41253754462275423975e+003
  +1.49623565609443289759e+003
  +1.58489319246111244865e+003
  +1.67880401812256059202e+003
  +1.77827941003892237859e+003
  +1.88364908948979973502e+003
  +1.99526231496887817229e+003
  +2.11348903983664695261e+003
  +2.23872113856833902901e+003
  +2.37137370566165418495e+003
  +2.51188643150958068873e+003
  +2.66072505979880952509e+003
  +2.81838293126445296366e+003
  +2.98538261891795809788e+003
  +3.16227766016837949792e+003
  +3.34965439157827631789e+003
  +3.54813389233575344406e+003
  +3.75837404288443940459e+003
  +3.98107170553497280707e+003
  +4.21696503428582127526e+003
  +4.46683592150962886080e+003
  +4.73151258961480198195e+003
  +5.01187233627272325975e+003
  +5.30884444230988174240e+003
  +5.62341325190348834440e+003
  +5.95662143529009972553e+003
  +6.30957344480193205527e+003
  +6.68343917568614415359e+003
  +7.07945784384137459710e+003
  +7.49894209332455830008e+003
  +7.94328234724281355739e+003
  +8.41395141645194780722e+003
  +8.91250938133744966763e+003
  +9.44060876285923404794e+003
  +9.99999999999999818101e+003
  +1.05925372517728828825e+004
  +1.12201845430196262896e+004
  +1.18850222743701833679e+004
  +1.25892541179416693922e+004
  +1.33352143216332315205e+004
  +1.41253754462275319383e+004
  +1.49623565609443321591e+004
  +1.58489319246111299435e+004
  +1.67880401812255913683e+004
  +1.77827941003892265144e+004
  +1.88364908948980009882e+004
  +1.99526231496887849062e+004
  +2.11348903983664567932e+004
  +2.23872113856833966565e+004
  +2.37137370566165482160e+004
  +2.51188643150957868784e+004
  +2.66072505979880770610e+004
  +2.81838293126445350936e+004
  +2.98538261891795591509e+004
  +3.16227766016838031646e+004
  +3.34965439157827640884e+004
  +3.54813389233575362596e+004
  +3.75837404288444013218e+004
  +3.98107170553496980574e+004
  +4.21696503428581854678e+004
  +4.46683592150962649612e+004
  +4.73151258961480634753e+004
  +5.01187233627272435115e+004
  +5.30884444230988374329e+004
  +5.62341325190348943579e+004
  +5.95662143529010136263e+004
  +6.30957344480192768970e+004
  +6.68343917568613978801e+004
  +7.07945784384137077723e+004
  +7.49894209332455939148e+004
  +7.94328234724281501258e+004
  +8.41395141645194962621e+004
  +8.91250938133745221421e+004
  +9.44060876285922713578e+004
  +9.99999999999999126885e+004
  +1.05925372517728770617e+005
  +1.12201845430196393863e+005
  +1.18850222743701873696e+005
  +1.25892541179416715750e+005
  +1.33352143216332362499e+005
  +1.41253754462275363039e+005
  +1.49623565609443205176e+005
  +1.58489319246111204848e+005
  +1.67880401812255789991e+005
  +1.77827941003892337903e+005
  +1.88364908948980038986e+005
  +1.99526231496887921821e+005
  +2.11348903983664582483e+005
  +2.23872113856833835598e+005
  +2.37137370566165307537e+005
  +2.51188643150957708713e+005
  +2.66072505979881039821e+005
  +2.81838293126445438247e+005
  +2.98538261891795904376e+005
  +3.16227766016837791540e+005
  +3.34965439157827524468e+005
  +3.54813389233575144317e+005
  +3.75837404288443794940e+005
  +3.98107170553496747743e+005
  +4.21696503428582334891e+005
  +4.46683592150963086169e+005
  +4.73151258961480343714e+005
  +5.01187233627272071317e+005
  +5.30884444230987923220e+005
  +5.62341325190348550677e+005
  +5.95662143529009772465e+005
  +6.30957344480193452910e+005
  +6.68343917568614706397e+005
  +7.07945784384137834422e+005
  +7.49894209332455531694e+005
  +7.94328234724281122908e+005
  +8.41395141645194380544e+005
  +8.91250938133744522929e+005
  +9.44060876285922131501e+005
  +1.00000000000000011642e+006
</indep>
<dep H acfrequency>
  +9.99960523140879575799e-001-j6.28293726675838680451e-003
  +9.99955706448906855854e-001-j6.65519264743609506585e-003
  +9.99950302086865749907e-001-j7.04949950362817462368e-003
  +9.99944238362465154246e-001-j7.46716332850815185662e-003
  +9.99937434839333949554e-001-j7.90956675594209693281e-003
  +9.99929801271040807897e-001-j8.37817409091611356442e-003
  +9.99921236405291957716e-001-j8.87453610078922476567e-003
  +9.99911626642532413989e-001-j9.40029508139183719861e-003
  +9.99900844531264154647e-001-j9.95719021255091728262e-003
  +9.99888747080259876476e-001-j1.05470632181662530430e-002
  +9.99875173865459987432e-001-j1.11718643464777164093e-002
  +9.99859944906658970609e-001-j1.18336586866377886651e-002
  +9.99842858286095204079e-001-j1.25346328381214112274e-002
  +9.99823687477707889748e-001-j1.32771019498470269071e-002
  +9.99802178352076298395e-001-j1.40635171461252952291e-002
  +9.99778045817875105072e-001-j1.48964733566671943960e-002
  +9.99750970056001442288e-001-j1.57787175678371499599e-002
  +9.99720592297311805297e-001-j1.67131575120887387875e-002
  +9.99686510089088598008e-001-j1.77028708120212513455e-002
  +9.99648271988863079685e-001-j1.87511145946864174472e-002
  +9.99605371616997473438e-001-j1.98613355905859455264e-002
  +9.99557240991387319085e-001-j2.10371807301482742492e-002
  +9.99503243058707635527e-001-j2.22825082482574383935e-002
  +9.99442663326701730142e-001-j2.36013993045098846579e-002
  +9.99374700491017842197e-001-j2.49981701231551667330e-002
  +9.99298455937920770964e-001-j2.64773846519669453503e-002
  +9.99212921990759284085e-001-j2.80438677333937624869e-002
  +9.99116968753248735347e-001-j2.97027187740203334199e-002
  +9.99009329386322586508e-001-j3.14593258893549401756e-002
  +9.98888583637436933138e-001-j3.33193804899198295355e-002
  +9.98753139421677094134e-001-j3.52888922611796496120e-002
  +9.98601212232751667131e-001-j3.73742044735473691319e-002
  +9.98430802138924544664e-001-j3.95820095390354773079e-002
  +9.98239668094104137808e-001-j4.19193647074591682622e-002
  +9.98025299267739640641e-001-j4.43937077667362345323e-002
  +9.97784883068952077600e-001-j4.70128725779407549701e-002
  +9.97515269510665714137e-001-j4.97851042354003972545e-002
  +9.97212931528707047235e-001-j5.27190735941863303227e-002
  +9.96873920839384530801e-001-j5.58238908505764089285e-002
  +9.96493818887615345758e-001-j5.91091177940582732098e-002
  +9.96067682407172472203e-001-j6.25847782705716837448e-002
  +9.95589983086323626615e-001-j6.62613663041851791435e-002
  +9.95054540807711052075e-001-j7.01498512162812976056e-002
  +9.94454449912950844137e-001-j7.42616789554419731711e-002
  +9.93781997932933092166e-001-j7.86087687052842432056e-002
  +9.93028576227772297180e-001-j8.32035036691109175511e-002
  +9.92184582000357750964e-001-j8.80587147370044398542e-002
  +9.91239311190146743513e-001-j9.31876555206225531958e-002
  +9.90180841826309166009e-001-j9.86039669914497984848e-002
  +9.88995907530204609870e-001-j1.04321629678181468370e-001
  +9.87669761016954139698e-001-j1.10354901067722596664e-001
  +9.86186027667163234156e-001-j1.16718235512812740229e-001
  +9.84526549537567019499e-001-j1.23426183580388093564e-001
  +9.82671220570914383252e-001-j1.30493267384121064412e-001
  +9.80597814270700252059e-001-j1.37933828041657463581e-001
  +9.78281805747721056044e-001-j1.45761840996535357862e-001
  +9.75696190847138544733e-001-j1.53990694567959857109e-001
  +9.72811306052169588732e-001-j1.62632926768356500524e-001
  +9.69594654058710259115e-001-j1.71699915199397201704e-001
  +9.66010741346584156375e-001-j1.81201514755277570679e-001
  +9.62020935754162476172e-001-j1.91145637995869727144e-001
  +9.57583353999778452703e-001-j2.01537773487536209238e-001
  +9.52652791274688381939e-001-j2.12380438249932579353e-001
  +9.47180707422469736478e-001-j2.23672561815568937682e-001
  +9.41115286747817192392e-001-j2.35408801444192017360e-001
  +9.34401591046134294416e-001-j2.47578790886027022555e-001
  +9.26981827836804384013e-001-j2.60166328907377120139e-001
  +9.18795757767608245459e-001-j2.73148518714370402982e-001
  +9.09781266401954780143e-001-j2.86494875531849879646e-001
  +8.99875125681765974939e-001-j3.00166426938443364758e-001
  +8.89013968769237217238e-001-j3.14114839035673276690e-001
  +8.77135498136503044542e-001-j3.28281610885123587007e-001
  +8.64179940094448872934e-001-j3.42597389413293151872e-001
  +8.50091748874351127441e-001-j3.56981466423816340416e-001
  +8.34821549485282754510e-001-j3.71341527438387053461e-001
  +8.18328290726515916731e-001-j3.85573727480406469592e-001
  +8.00581558225436085152e-001-j3.99563170042946780303e-001
  +7.81563973071698780970e-001-j4.13184860647240692622e-001
  +7.61273576118184913675e-001-j4.26305193989488073747e-001
  +7.39726073685908813715e-001-j4.38784012465288253413e-001
  +7.16956800324898058108e-001-j4.50477243368388513556e-001
  +6.93022242012327316374e-001-j4.61240082916190785589e-001
  +6.68000962340770776393e-001-j4.70930649514952393009e-001
  +6.41993787952899630511e-001-j4.79413979961772707128e-001
  +6.15123139558601428334e-001-j4.86566195638549026103e-001
  +5.87531441242951091297e-001-j4.92278627195952722673e-001
  +5.59378600943744030971e-001-j4.96461661913549567871e-001
  +5.30838623931339070872e-001-j4.99048073109216061560e-001
  +5.02095491724172005021e-001-j4.99995608895152099382e-001
  +4.73338502777006397970e-001-j4.99288658559182862984e-001
  +4.44757320250423082708e-001-j4.96938875853042583142e-001
  +4.16536999535594865129e-001-j4.92984713306080846174e-001
  +3.88853270117722527033e-001-j4.87489901881542619932e-001
  +3.61868322542833964484e-001-j4.80540986475523679289e-001
  +3.35727305067097858693e-001-j4.72244091227705720115e-001
  +3.10555672347309685843e-001-j4.62721132778934285401e-001
  +2.86457458373509665783e-001-j4.52105720949977196721e-001
  +2.63514476165850275446e-001-j4.40538984673193023678e-001
  +2.41786384939314646925e-001-j4.28165539245386028711e-001
  +2.21311516842286920559e-001-j4.15129774113171867711e-001
  +2.02108322864378048278e-001-j4.01572594549636008310e-001
  +1.84177281496842037978e-001-j3.87628701823375110269e-001
  +1.67503112611946197719e-001-j3.73424450026047294315e-001
  +1.52057149852512646371e-001-j3.59076277455421921658e-001
  +1.37799743998984036697e-001-j3.44689678628180729003e-001
  +1.24682593702797897550e-001-j3.30358660443980045596e-001
  +1.12650925470721724464e-001-j3.16165612395326145467e-001
  +1.01645469376581629173e-001-j3.02181514874414580696e-001
  +9.16041989621075997130e-002-j2.88466409993638928100e-001
  +8.24638221961257883441e-002-j2.75070064210796216830e-001
  +7.41610248273597977287e-002-j2.62032759829597505785e-001
  +6.66334780781077801182e-002-j2.49386161759874130928e-001
  +5.98206297664335487352e-002-j2.37154215692618103306e-001
  +5.36643021556212143630e-002-j2.25354043295813544212e-001
  +4.81091217092387835041e-002-j2.13996808662195781015e-001
  +4.31028060588175415679e-002-j2.03088537757977610765e-001
  +3.85963323878869141170e-002-j1.92630878921554699046e-001
  +3.45440095364948698831e-002-j1.82621797553406600700e-001
  +3.09034737806790256454e-002-j1.73056202110660889426e-001
  +2.76356257031543754710e-002-j1.63926501503416255368e-001
  +2.47045230318576544692e-002-j1.55223096134647658983e-001
  +2.20772419073904067888e-002-j1.46934806282082025541e-001
  +1.97237168257210354616e-002-j1.39049242429794633891e-001
  +1.76165675290358078597e-002-j1.31553122644545106290e-001
  +1.57309193993929036237e-002-j1.24432542263841525165e-001
  +1.40442224429311261075e-002-j1.17673201107578423441e-001
  +1.25360727215366087733e-002-j1.11260593213666422741e-001
  +1.11880390722723464109e-002-j1.05180163785714139713e-001
  +9.98349712771294875435e-003-j9.94174376697262163205e-002
  +8.90747198716227393811e-003-j9.39581232781934172493e-002
  +7.94649036506450516526e-003-j8.87881954763269365394e-002
  +7.08844263611192997726e-003-j8.38939605520354486634e-002
  +6.32245488631570391053e-003-j7.92621060187414239184e-002
  +5.63877084787198310650e-003-j7.48797376544360765438e-002
  +5.02864342775215591996e-003-j7.07344058646757894993e-002
  +4.48423542265193736389e-003-j6.68141231726210038655e-002
  +3.99852893545868740000e-003-j6.31073743853362012501e-002
  +3.56524296183570498300e-003-j5.96031207610707783329e-002
  +3.17875859260747725688e-003-j5.62907993051919783301e-002
  +2.83405127248642987881e-003-j5.31603181505843486176e-002
  +2.52662956360818081319e-003-j5.02020488292707206535e-002
  +2.25247987961341850083e-003-j4.74068161133539417440e-002
  +2.00801667970677616068e-003-j4.47658859928047811461e-002
  +1.79003763997124436605e-003-j4.22709522629752254552e-002
  +1.59568334948116913145e-003-j3.99141221139756238734e-002
  +1.42240111012744536133e-003-j3.76879010454197818647e-002
  +1.26791245057006080749e-003-j3.55851773718742353525e-002
  +1.13018399565929707901e-003-j3.35992065352033672521e-002
  +1.00740136251954476472e-003-j3.17235953986041499530e-002
  +8.97945782932945183417e-004-j2.99522866623544818665e-002
  +8.00373178482592152229e-004-j2.82795435121884139451e-002
  +7.13395439999161477644e-004-j2.66999345869114411423e-002
  +6.35863686154171207920e-004-j2.52083193316571911591e-002
  +5.66753297562205046040e-004-j2.37998337864344655657e-002
  +5.05150542535388142815e-004-j2.24698768457854344827e-002
  +4.50240628743710116864e-004-j2.12140970140126047805e-002
  +4.01297031559030511778e-004-j2.00283796711439553151e-002
  +3.57671964893504395252e-004-j1.89088348572574310724e-002
  +3.18787873985032033184e-004-j1.78517855766988225996e-002
  +2.84129841934720552867e-004-j1.68537566188563039948e-002
  +2.53238812965160390613e-004-j1.59114638883029353711e-002
  +2.25705545441183411462e-004-j1.50218042341105119386e-002
  +2.01165216770263688330e-004-j1.41818457658312406522e-002
  +1.79292610466297199900e-004-j1.33888186419164473273e-002
  +1.59797823001018153522e-004-j1.26401063150901656756e-002
  +1.42422434658993760700e-004-j1.19332372183368392443e-002
  +1.26936094526214782868e-004-j1.12658768746210433132e-002
  +1.13133475044511759458e-004-j1.06358204131762265621e-002
  +1.00831556314449257024e-004-j1.00409854751264560752e-002
  +8.98672045829360804925e-005-j9.47940549129936381456e-003
  +8.00950131584951519580e-005-j8.94922331531414552708e-003
  +7.13853774023654033326e-005-j8.44868519535782631913e-003
  +6.36227784884247607629e-005-j7.97613506847032888158e-003
  +5.67042533465333996670e-005-j7.53000916162695037304e-003
  +5.05380306357736450553e-005-j7.10883088441644547112e-003
  +4.50423147664795911851e-005-j6.71120599865330201561e-003
  +4.01442019300651039421e-005-j6.33581805082157525216e-003
  +3.57787138279389873002e-005-j5.98142405381659955643e-003
  +3.18879363371908010230e-005-j5.64685040502287041025e-003
  +2.84202517309408702749e-005-j5.33098902833540038565e-003
  +2.53296543029456635405e-005-j5.03279372829431182607e-003
  +2.25751403450467987737e-005-j4.75127674505339703953e-003
  +2.01201644065372873204e-005-j4.48550549944167886024e-003
  +1.79321546391646533686e-005-j4.23459951789949620715e-003
  +1.59820808116505134718e-005-j3.99772752757656616579e-003
  +1.42440692734221963192e-005-j3.77410471236725624314e-003
  +1.26950597677975019211e-005-j3.56299012112789789675e-003
  +1.13144995482382164728e-005-j3.36368421977125981598e-003
  +1.00840707447373746929e-005-j3.17552657936515927636e-003
  +8.98744736738771504215e-006-j2.99789369277456748536e-003
  +8.01007872647443235309e-006-j2.83019691278066885809e-003
  +7.13899639819350004266e-006-j2.67188050498594082544e-003
  +6.36264217691891086152e-006-j2.52241980917202596180e-003
  +5.67071473293371856400e-006-j2.38131950311757517591e-003
  +5.05403294236186822948e-006-j2.24811196320665604778e-003
  +4.50441407696097692603e-006-j2.12235571646573898189e-003
  +4.01456523837233532088e-006-j2.00363397895880236688e-003
  +3.57798659697658744336e-006-j1.89155327574681299783e-003
  +3.18888515198913003181e-006-j1.78574213788010760680e-003
  +2.84209786891728433868e-006-j1.68584987214075144278e-003
  +2.53302317483578745251e-006-j1.59154539948736092544e-003
</dep>
<dep argH acfrequency>
  +8.96400047372979287275e+001
  +8.96186742892091245949e+001
  +8.95960800480211929653e+001
  +8.95721471510396440863e+001
  +8.95467963037750109834e+001
  +8.95199435181181684129e+001
  +8.94914998351407433574e+001
  +8.94613710316509269660e+001
  +8.94294573095616129876e+001
  +8.93956529670953017330e+001
  +8.93598460508052312434e+001
  +8.93219179873151460924e+001
  +8.92817431936490066846e+001
  +8.92391886649629100248e+001
  +8.91941135384218739546e+001
  +8.91463686319272312630e+001
  +8.90957959563274783932e+001
  +8.90422281996937670101e+001
  +8.89854881821957235388e+001
  +8.89253882800437196465e+001
  +8.88617298169255178664e+001
  +8.87943024213178375703e+001
  +8.87228833480149461366e+001
  +8.86472367621791192960e+001
  +8.85671129842126703124e+001
  +8.84822476937317503598e+001
  +8.83923610909393460133e+001
  +8.82971570137331696060e+001
  +8.81963220089348567399e+001
  +8.80895243561290470780e+001
  +8.79764130427300727888e+001
  +8.78566166890757642705e+001
  +8.77297424225950663867e+001
  +8.75953747004014786626e+001
  +8.74530740800701380522e+001
  +8.73023759388518669766e+001
  +8.71427891422044496039e+001
