<Qucs Dataset 0.0.19>
<indep time 11>
  +0.00000000000000000000e+000
  +1.00000000000000004792e-004
  +2.00000000000000009584e-004
  +3.00000000000000027929e-004
  +4.00000000000000019169e-004
  +5.00000000000000010408e-004
  +6.00000000000000055858e-004
  +6.99999999999999992888e-004
  +8.00000000000000038337e-004
  +8.99999999999999975367e-004
  +1.00000000000000002082e-003
</indep>
<dep Pr1.Vt time>
  +0.00000000000000000000e+000
  +8.51850448110205479383e-014
  +1.34729201473998506358e-013
  -1.92537573437689345036e-013
  +1.59365794874280802626e-013
  -1.38087374065828790096e-013
  -4.65320558847922472762e-013
  -7.92544454360753530604e-013
  +4.76867358322151709798e-013
  -1.32783690147529979845e-012
  -1.17999974847997371171e-013
</dep>
<dep Pr2.Vt time>
  +0.00000000000000000000e+000
  +4.84948227408299459285e-010
  +9.69896454816598918569e-010
  -4.07800467006058653396e-010
  +1.93979290963319783714e-009
  +5.62095987810540265173e-010
  -8.15600934012117306793e-010
  -2.19329785583477487876e-009
  +3.87958581926639567428e-009
  -4.94869169948009002269e-009
  +1.12419197562108053035e-009
</dep>
<dep V1.It time>
  +0.00000000000000000000e+000
  -8.51850448110205451773e-017
  -1.34729201473998550928e-016
  +1.92537573437689338331e-016
  -1.59365794874280797498e-016
  +1.38087374065828816523e-016
  +4.65320558847922520882e-016
  +7.92544454360753510093e-016
  -4.76867358322151701910e-016
  +1.32783690147529991994e-015
  +1.17999974847997374130e-016
</dep>
<dep _net1.Vt time>
  +0.00000000000000000000e+000
  +4.84948227408299459285e-010
  +9.69896454816598918569e-010
  -4.07800467006058653396e-010
  +1.93979290963319783714e-009
  +5.62095987810540265173e-010
  -8.15600934012117306793e-010
  -2.19329785583477487876e-009
  +3.87958581926639567428e-009
  -4.94869169948009002269e-009
  +1.12419197562108053035e-009
</dep>
<dep _net0.Vt time>
  +0.00000000000000000000e+000
  +8.51850448110205479383e-014
  +1.34729201473998506358e-013
  -1.92537573437689345036e-013
  +1.59365794874280802626e-013
  -1.38087374065828790096e-013
  -4.65320558847922472762e-013
  -7.92544454360753530604e-013
  +4.76867358322151709798e-013
  -1.32783690147529979845e-012
  -1.17999974847997371171e-013
</dep>
